VERSION
8

COMMSETTINGS
0
COM3
COM2
9600
2
63
4
0
0

COMMDISPLAY
0

VERSATAP
0

CHANNELALIAS



SEND
0
Scale 1
01 04 00 03 00 02 81 CB
0
5

SEND
1
Scale 2
02 04 00 03 00 02 81 F8
0
5

SEND
2
Scale 3
03 04 00 03 00 02 80 29
0
5

SEND
3
Scale 4
04 04 00 03 00 02 81 9E
0
5

SEND
4
Scale 5
05 04 00 03 00 02 80 4F
0
5

SEND
5
1
01 04 04 00 00 69 C3 FB 84
0
5

SEND
6
2
02 04 04 00 00 75 12 C8 84
0
5

SEND
7
3
03 04 04 00 00 75 00 D8 44
0
5

SEND
8
4
04 04 04 00 00 75 1E AE 84
0
5

SEND
9
5
05 04 04 00 00 75 1F 99 1D
0
5

SEND
10
11
01 04 04 00 00 30 39 FB 84
0
5

SEND
11
12
02 04 04 00 00 10 E1 C8 84
0
5

SEND
12

01 16 00 01 00 06 0C F6 F4 D2 3C 2B D8 EF 88 45 CC 00 00 55 FF
0
5

SEND
13

01 16 00 01 00 06 0C F8 34 D2 64 2B EC EE D4 45 F4 00 00 55 FF
0
5

RECEIVE
0
1
01 04 00 03 00 02 81 CB
5
1
COMMENT 
0
1
0
0

RECEIVE
1
2
02 04 00 03 00 02 81 F8
6
1
COMMENT 
0
1
0
0

RECEIVE
2
3
03 04 00 03 00 02 80 29
7
1
COMMENT 
0
1
0
0

RECEIVE
3
4
04 04 00 03 00 02 81 9E
8
1
COMMENT 
0
1
0
0

RECEIVE
4
5
05 04 00 03 00 02 80 4F
9
1
COMMENT 
0
1
0
0

RECEIVE
5
11
01 04 00 03 00 02 81 CB
10
0
COMMENT 
0
1
0
0

RECEIVE
6
12
02 04 00 03 00 02 81 F8
11
0
COMMENT 
0
1
0
0

